
T6D64 000:422 SEGGER J-Link V4.98e Log File (0001ms, 0281ms total)
T6D64 000:422 DLL Compiled: May  5 2015 11:00:52 (0001ms, 0281ms total)
T6D64 000:422 Logging started @ 2016-08-23 15:10 (0001ms, 0281ms total)
T6D64 000:423 JLINK_SetWarnOutHandler(...) (0000ms, 0281ms total)
T6D64 000:424 JLINK_OpenEx(...)
Firmware: J-Link ARM V8 compiled Nov 28 2014 13:44:46
Hardware: V8.00
S/N: 58001139
Feature(s): RDI,FlashDL,FlashBP,JFlash  returns O.K. (0276ms, 0558ms total)
T6D64 000:700 JLINK_SetErrorOutHandler(...) (0000ms, 0558ms total)
T6D64 000:700 JLINK_ExecCommand("ProjectFile = "G:\vino_project\electronic_design\bycle\加速度陀螺仪―MPU6050\MPU6050\新建文件夹\final\back_attitude\MPU9250\Project\RVMDK（uv4）\JLinkSettings.ini"", ...)  returns 0x00 (0003ms, 0561ms total)
T6D64 000:734 JLINK_ExecCommand("Device = STM32F103ZE", ...)Device "STM32F103ZE" selected.  returns 0x00 (0024ms, 0585ms total)
T6D64 000:758 JLINK_ExecCommand("DisableConnectionTimeout", ...)  returns 0x01 (0000ms, 0585ms total)
T6D64 000:758 JLINK_GetHardwareVersion()  returns 0x13880 (0000ms, 0585ms total)
T6D64 000:758 JLINK_GetDLLVersion()  returns 49805 (0000ms, 0585ms total)
T6D64 000:758 JLINK_GetFirmwareString(...) (0001ms, 0586ms total)
T6D64 000:799 JLINK_GetDLLVersion()  returns 49805 (0000ms, 0586ms total)
T6D64 000:799 JLINK_GetCompileDateTime() (0000ms, 0586ms total)
T6D64 000:810 JLINK_GetFirmwareString(...) (0001ms, 0587ms total)
T6D64 000:820 JLINK_GetHardwareVersion()  returns 0x13880 (0000ms, 0587ms total)
T6D64 000:865 JLINK_TIF_Select(JLINKARM_TIF_SWD)  returns 0x00 (0001ms, 0588ms total)
T6D64 000:866 JLINK_SetSpeed(5000) (0000ms, 0588ms total)
T6D64 000:866 JLINK_GetId() >0x108 TIF>Found SWD-DP with ID 0x1BA01477 >0x0D TIF> >0x28 TIF> >0x0D TIF> >0x28 TIF> >0x0D TIF> >0x21 TIF> >0x0D TIF> >0x28 TIF> >0x0D TIF> >0x28 TIF> >0x0D TIF> >0x28 TIF> >0x0D TIF> >0x21 TIF> >0x0D TIF> >0x21 TIF> >0x0D TIF> >0x28 TIF> >0x0D TIF> >0x21 TIF> >0x0D TIF> >0x21 TIF> >0x108 TIF>Found SWD-DP with ID 0x1BA01477 >0x0D TIF> >0x21 TIF> >0x0D TIF> >0x28 TIF> >0x0D TIF> >0x28 TIF> >0x0D TIF> >0x21 TIF> >0x0D TIF> >0x28 TIF> >0x0D TIF> >0x21 TIF> >0x0D TIF> >0x21 TIF>
 >0x0D TIF> >0x21 TIF> >0x0D TIF> >0x21 TIF> >0x0D TIF> >0x28 TIF> >0x0D TIF> >0x28 TIF> >0x0D TIF> >0x21 TIF> >0x0D TIF> >0x28 TIF> >0x0D TIF> >0x28 TIF> >0x0D TIF> >0x28 TIF> >0x0D TIF> >0x21 TIF> >0x0D TIF> >0x21 TIF> >0x0D TIF> >0x28 TIF> >0x0D TIF> >0x21 TIF> >0x0D TIF> >0x21 TIF>Found Cortex-M3 r1p1, Little endian. -- CPU_WriteMem(4 bytes @ 0xE0002000) -- CPU_ReadMem(4 bytes @ 0xE000EDF0) -- CPU_ReadMem(4 bytes @ 0xE0002000)FPUnit: 6 code (BP) slots and 2 literal slots
 -- CPU_ReadMem(4 bytes @ 0xE000EDFC) -- CPU_ReadMem(4 bytes @ 0xE0001000) -- CPU_WriteMem(4 bytes @ 0xE0001000) -- CPU_ReadMem(4 bytes @ 0xE000ED88) -- CPU_WriteMem(4 bytes @ 0xE000ED88) -- CPU_ReadMem(4 bytes @ 0xE000ED88) -- CPU_WriteMem(4 bytes @ 0xE000ED88)CoreSight components:ROMTbl 0 @ E00FF000 -- CPU_ReadMem(16 bytes @ 0xE00FF000) -- CPU_ReadMem(16 bytes @ 0xE000EFF0) -- CPU_ReadMem(16 bytes @ 0xE000EFE0)ROMTbl 0 [0]: FFF0F000, CID: B105E00D, PID: 001BB000 SCS
 -- CPU_ReadMem(16 bytes @ 0xE0001FF0) -- CPU_ReadMem(16 bytes @ 0xE0001FE0)ROMTbl 0 [1]: FFF02000, CID: B105E00D, PID: 001BB002 DWT -- CPU_ReadMem(16 bytes @ 0xE0002FF0) -- CPU_ReadMem(16 bytes @ 0xE0002FE0)ROMTbl 0 [2]: FFF03000, CID: B105E00D, PID: 000BB003 FPB -- CPU_ReadMem(16 bytes @ 0xE0000FF0) -- CPU_ReadMem(16 bytes @ 0xE0000FE0)ROMTbl 0 [3]: FFF01000, CID: B105E00D, PID: 001BB001 ITM -- CPU_ReadMem(16 bytes @ 0xE00FF010) -- CPU_ReadMem(16 bytes @ 0xE0040FF0)
 -- CPU_ReadMem(16 bytes @ 0xE0040FE0)ROMTbl 0 [4]: FFF41000, CID: B105900D, PID: 001BB923 TPIU-Lite -- CPU_ReadMem(16 bytes @ 0xE0041FF0) -- CPU_ReadMem(16 bytes @ 0xE0041FE0)ROMTbl 0 [5]: FFF42000, CID: B105900D, PID: 101BB924 ETM-M3 >0x0D TIF> >0x21 TIF>  returns 0x1BA01477 (0275ms, 0863ms total)
T6D64 001:141 JLINK_GetDLLVersion()  returns 49805 (0000ms, 0863ms total)
T6D64 001:141 JLINK_CORE_GetFound()  returns 0x30000FF (0000ms, 0863ms total)
T6D64 001:142 JLINK_GetDebugInfo(0x100) -- Value=0xE00FF003  returns 0x00 (0000ms, 0864ms total)
T6D64 001:153 JLINK_ReadMem (0xE00FF000, 0x0020 Bytes, ...) -- CPU is running -- CPU_ReadMem(32 bytes @ 0xE00FF000) - Data: 03 F0 F0 FF 03 20 F0 FF 03 30 F0 FF 03 10 F0 FF ...  returns 0x00 (0001ms, 0865ms total)
T6D64 001:154 JLINK_ReadMem (0xE000EFF0, 0x0010 Bytes, ...) -- CPU is running -- CPU_ReadMem(16 bytes @ 0xE000EFF0) - Data: 0D 00 00 00 E0 00 00 00 05 00 00 00 B1 00 00 00  returns 0x00 (0000ms, 0865ms total)
T6D64 001:155 JLINK_ReadMem (0xE000EFD0, 0x0020 Bytes, ...) -- CPU is running -- CPU_ReadMem(32 bytes @ 0xE000EFD0) - Data: 04 00 00 00 00 00 00 00 00 00 00 00 00 00 00 00 ...  returns 0x00 (0000ms, 0866ms total)
T6D64 001:156 JLINK_ReadMem (0xE0001FF0, 0x0010 Bytes, ...) -- CPU is running -- CPU_ReadMem(16 bytes @ 0xE0001FF0) - Data: 0D 00 00 00 E0 00 00 00 05 00 00 00 B1 00 00 00  returns 0x00 (0000ms, 0867ms total)
T6D64 001:156 JLINK_ReadMem (0xE0001FD0, 0x0020 Bytes, ...) -- CPU is running -- CPU_ReadMem(32 bytes @ 0xE0001FD0) - Data: 04 00 00 00 00 00 00 00 00 00 00 00 00 00 00 00 ...  returns 0x00 (0001ms, 0868ms total)
T6D64 001:157 JLINK_ReadMem (0xE0002FF0, 0x0010 Bytes, ...) -- CPU is running -- CPU_ReadMem(16 bytes @ 0xE0002FF0) - Data: 0D 00 00 00 E0 00 00 00 05 00 00 00 B1 00 00 00  returns 0x00 (0000ms, 0868ms total)
T6D64 001:157 JLINK_ReadMem (0xE0002FD0, 0x0020 Bytes, ...) -- CPU is running -- CPU_ReadMem(32 bytes @ 0xE0002FD0) - Data: 04 00 00 00 00 00 00 00 00 00 00 00 00 00 00 00 ...  returns 0x00 (0001ms, 0869ms total)
T6D64 001:158 JLINK_ReadMem (0xE0000FF0, 0x0010 Bytes, ...) -- CPU is running -- CPU_ReadMem(16 bytes @ 0xE0000FF0) - Data: 0D 00 00 00 E0 00 00 00 05 00 00 00 B1 00 00 00  returns 0x00 (0001ms, 0870ms total)
T6D64 001:159 JLINK_ReadMem (0xE0000FD0, 0x0020 Bytes, ...) -- CPU is running -- CPU_ReadMem(32 bytes @ 0xE0000FD0) - Data: 04 00 00 00 00 00 00 00 00 00 00 00 00 00 00 00 ...  returns 0x00 (0001ms, 0871ms total)
T6D64 001:160 JLINK_ReadMem (0xE0040FF0, 0x0010 Bytes, ...) -- CPU is running -- CPU_ReadMem(16 bytes @ 0xE0040FF0) - Data: 0D 00 00 00 90 00 00 00 05 00 00 00 B1 00 00 00  returns 0x00 (0000ms, 0871ms total)
T6D64 001:160 JLINK_ReadMem (0xE0040FD0, 0x0020 Bytes, ...) -- CPU is running -- CPU_ReadMem(32 bytes @ 0xE0040FD0) - Data: 04 00 00 00 00 00 00 00 00 00 00 00 00 00 00 00 ...  returns 0x00 (0001ms, 0872ms total)
T6D64 001:161 JLINK_ReadMem (0xE0041FF0, 0x0010 Bytes, ...) -- CPU is running -- CPU_ReadMem(16 bytes @ 0xE0041FF0) - Data: 0D 00 00 00 90 00 00 00 05 00 00 00 B1 00 00 00  returns 0x00 (0001ms, 0873ms total)
T6D64 001:162 JLINK_ReadMem (0xE0041FD0, 0x0020 Bytes, ...) -- CPU is running -- CPU_ReadMem(32 bytes @ 0xE0041FD0) - Data: 04 00 00 00 00 00 00 00 00 00 00 00 00 00 00 00 ...  returns 0x00 (0000ms, 0873ms total)
T6D64 001:162 JLINK_ReadMemU32(0xE000ED00, 0x0001 Items, ...) -- CPU is running -- CPU_ReadMem(4 bytes @ 0xE000ED00) - Data: 31 C2 1F 41  returns 0x01 (0001ms, 0874ms total)
T6D64 001:163 JLINK_SetResetType(JLINKARM_RESET_TYPE_NORMAL)  returns JLINKARM_RESET_TYPE_NORMAL (0000ms, 0874ms total)
T6D64 001:163 JLINK_Reset() -- CPU is running -- CPU_WriteMem(4 bytes @ 0xE000EDF0) -- CPU is running -- CPU_WriteMem(4 bytes @ 0xE000EDFC) >0x35 TIF> -- CPU is running -- CPU_WriteMem(4 bytes @ 0xE000ED0C) -- CPU is running -- CPU_ReadMem(4 bytes @ 0xE000EDF0) -- CPU is running -- CPU_ReadMem(4 bytes @ 0xE000EDF0) -- CPU is running -- CPU_WriteMem(4 bytes @ 0xE000EDF0) -- CPU is running -- CPU_WriteMem(4 bytes @ 0xE000EDFC) -- CPU is running -- CPU_ReadMem(4 bytes @ 0xE000EDF0)
 -- CPU_WriteMem(4 bytes @ 0xE0002000) -- CPU_ReadMem(4 bytes @ 0xE000EDFC) -- CPU_ReadMem(4 bytes @ 0xE0001000) (0017ms, 0891ms total)
T6D64 001:180 JLINK_Halt()  returns 0x00 (0000ms, 0891ms total)
T6D64 001:180 JLINK_IsHalted()  returns TRUE (0000ms, 0891ms total)
T6D64 001:180 JLINK_ReadMemU32(0xE000EDF0, 0x0001 Items, ...) -- CPU_ReadMem(4 bytes @ 0xE000EDF0) - Data: 03 00 03 00  returns 0x01 (0000ms, 0891ms total)
T6D64 001:180 JLINK_WriteU32(0xE000EDF0, 0xA05F0003) -- CPU_WriteMem(4 bytes @ 0xE000EDF0)  returns 0x00 (0001ms, 0892ms total)
T6D64 001:181 JLINK_WriteU32(0xE000EDFC, 0x01000000) -- CPU_WriteMem(4 bytes @ 0xE000EDFC)  returns 0x00 (0000ms, 0892ms total)
T6D64 001:239 JLINK_GetHWStatus(...)  returns 0x00 (0001ms, 0893ms total)
T6D64 001:275 JLINK_GetNumBPUnits(Type = 0xFFFFFF00)  returns 0x06 (0000ms, 0893ms total)
T6D64 001:275 JLINK_GetNumBPUnits(Type = 0xF0)  returns 0x2000 (0000ms, 0893ms total)
T6D64 001:275 JLINK_GetNumWPUnits()  returns 0x04 (0000ms, 0893ms total)
T6D64 001:313 JLINK_GetSpeed()  returns 0xFA0 (0000ms, 0893ms total)
T6D64 001:328 JLINK_ReadMemU32(0xE000E004, 0x0001 Items, ...) -- CPU_ReadMem(4 bytes @ 0xE000E004) - Data: 01 00 00 00  returns 0x01 (0001ms, 0894ms total)
T6D64 001:329 JLINK_ReadMemU32(0xE000E004, 0x0001 Items, ...) -- CPU_ReadMem(4 bytes @ 0xE000E004) - Data: 01 00 00 00  returns 0x01 (0000ms, 0894ms total)
T6D64 001:329 JLINK_WriteMem(0xE0001000, 0x001C Bytes, ...) - Data: 01 00 00 00 00 00 00 00 00 00 00 00 00 00 00 00 ... -- CPU_WriteMem(28 bytes @ 0xE0001000)  returns 0x1C (0002ms, 0896ms total)
T6D64 001:331 JLINK_ReadMem (0xE0001000, 0x001C Bytes, ...) -- CPU_ReadMem(28 bytes @ 0xE0001000) - Data: 01 00 00 40 00 00 00 00 00 00 00 00 00 00 00 00 ...  returns 0x00 (0001ms, 0897ms total)
T6D64 001:332 JLINK_Halt()  returns 0x00 (0000ms, 0897ms total)
T6D64 001:332 JLINK_IsHalted()  returns TRUE (0000ms, 0897ms total)
T6D64 001:342 JLINK_WriteMem(0x20000000, 0x0164 Bytes, ...) - Data: 00 BE 0A E0 0D 78 2D 06 68 40 08 24 40 00 00 D3 ... -- CPU_WriteMem(356 bytes @ 0x20000000)  returns 0x164 (0004ms, 0901ms total)
T6D64 001:346 JLINK_WriteReg(R0, 0x08000000)  returns 0x00 (0000ms, 0901ms total)
T6D64 001:346 JLINK_WriteReg(R1, 0x00B71B00)  returns 0x00 (0000ms, 0901ms total)
T6D64 001:346 JLINK_WriteReg(R2, 0x00000001)  returns 0x00 (0000ms, 0901ms total)
T6D64 001:346 JLINK_WriteReg(R3, 0x00000000)  returns 0x00 (0000ms, 0901ms total)
T6D64 001:346 JLINK_WriteReg(R4, 0x00000000)  returns 0x00 (0000ms, 0901ms total)
T6D64 001:346 JLINK_WriteReg(R5, 0x00000000)  returns 0x00 (0000ms, 0901ms total)
T6D64 001:346 JLINK_WriteReg(R6, 0x00000000)  returns 0x00 (0001ms, 0902ms total)
T6D64 001:347 JLINK_WriteReg(R7, 0x00000000)  returns 0x00 (0000ms, 0902ms total)
T6D64 001:347 JLINK_WriteReg(R8, 0x00000000)  returns 0x00 (0000ms, 0902ms total)
T6D64 001:347 JLINK_WriteReg(R9, 0x20000160)  returns 0x00 (0000ms, 0902ms total)
T6D64 001:347 JLINK_WriteReg(R10, 0x00000000)  returns 0x00 (0000ms, 0902ms total)
T6D64 001:347 JLINK_WriteReg(R11, 0x00000000)  returns 0x00 (0000ms, 0902ms total)
T6D64 001:347 JLINK_WriteReg(R12, 0x00000000)  returns 0x00 (0000ms, 0902ms total)
T6D64 001:347 JLINK_WriteReg(R13 (SP), 0x20000800)  returns 0x00 (0000ms, 0902ms total)
T6D64 001:347 JLINK_WriteReg(R14, 0x20000001)  returns 0x00 (0000ms, 0902ms total)
T6D64 001:347 JLINK_WriteReg(R15 (PC), 0x20000038)  returns 0x00 (0000ms, 0902ms total)
T6D64 001:347 JLINK_WriteReg(XPSR, 0x01000000)  returns 0x00 (0000ms, 0902ms total)
T6D64 001:347 JLINK_WriteReg(MSP, 0x20000800)  returns 0x00 (0000ms, 0902ms total)
T6D64 001:347 JLINK_WriteReg(PSP, 0x20000800)  returns 0x00 (0000ms, 0902ms total)
T6D64 001:347 JLINK_WriteReg(CFBP, 0x00000000)  returns 0x00 (0000ms, 0902ms total)
T6D64 001:347 JLINK_SetBPEx(Addr = 0x20000000, Type = 0xFFFFFFF2) -- CPU_ReadMem(2 bytes @ 0x20000000)  returns 0x00000001 (0001ms, 0903ms total)
T6D64 001:348 JLINK_Go() -- CPU_WriteMem(2 bytes @ 0x20000000) -- CPU_ReadMem(4 bytes @ 0xE0001000) -- CPU_WriteMem(4 bytes @ 0xE0002008) -- CPU_WriteMem(4 bytes @ 0xE000200C) -- CPU_WriteMem(4 bytes @ 0xE0002010) -- CPU_WriteMem(4 bytes @ 0xE0002014) -- CPU_WriteMem(4 bytes @ 0xE0002018) -- CPU_WriteMem(4 bytes @ 0xE000201C) -- CPU_WriteMem(4 bytes @ 0xE0001004) (0006ms, 0909ms total)
T6D64 001:354 JLINK_IsHalted() -- CPU_ReadMem(2 bytes @ 0x20000000)  returns TRUE (0004ms, 0913ms total)
T6D64 001:358 JLINK_ReadReg(R15 (PC))  returns 0x20000000 (0000ms, 0909ms total)
T6D64 001:358 JLINK_ClrBPEx(BPHandle = 0x00000001)  returns 0x00 (0000ms, 0909ms total)
T6D64 001:358 JLINK_ReadReg(R0)  returns 0x00000000 (0000ms, 0909ms total)
T6D64 001:359 JLINK_WriteReg(R0, 0x08000000)  returns 0x00 (0000ms, 0909ms total)
T6D64 001:359 JLINK_WriteReg(R1, 0x00B71B00)  returns 0x00 (0000ms, 0909ms total)
T6D64 001:359 JLINK_WriteReg(R2, 0x00000001)  returns 0x00 (0000ms, 0909ms total)
T6D64 001:359 JLINK_WriteReg(R3, 0x00000000)  returns 0x00 (0000ms, 0909ms total)
T6D64 001:359 JLINK_WriteReg(R4, 0x00000000)  returns 0x00 (0000ms, 0909ms total)
T6D64 001:359 JLINK_WriteReg(R5, 0x00000000)  returns 0x00 (0000ms, 0909ms total)
T6D64 001:360 JLINK_WriteReg(R6, 0x00000000)  returns 0x00 (0000ms, 0910ms total)
T6D64 001:360 JLINK_WriteReg(R7, 0x00000000)  returns 0x00 (0000ms, 0910ms total)
T6D64 001:360 JLINK_WriteReg(R8, 0x00000000)  returns 0x00 (0000ms, 0910ms total)
T6D64 001:360 JLINK_WriteReg(R9, 0x20000160)  returns 0x00 (0000ms, 0910ms total)
T6D64 001:360 JLINK_WriteReg(R10, 0x00000000)  returns 0x00 (0000ms, 0910ms total)
T6D64 001:360 JLINK_WriteReg(R11, 0x00000000)  returns 0x00 (0000ms, 0910ms total)
T6D64 001:360 JLINK_WriteReg(R12, 0x00000000)  returns 0x00 (0000ms, 0910ms total)
T6D64 001:360 JLINK_WriteReg(R13 (SP), 0x20000800)  returns 0x00 (0000ms, 0910ms total)
T6D64 001:360 JLINK_WriteReg(R14, 0x20000001)  returns 0x00 (0000ms, 0910ms total)
T6D64 001:360 JLINK_WriteReg(R15 (PC), 0x2000007C)  returns 0x00 (0000ms, 0910ms total)
T6D64 001:360 JLINK_WriteReg(XPSR, 0x01000000)  returns 0x00 (0000ms, 0910ms total)
T6D64 001:360 JLINK_WriteReg(MSP, 0x20000800)  returns 0x00 (0000ms, 0910ms total)
T6D64 001:360 JLINK_WriteReg(PSP, 0x20000800)  returns 0x00 (0000ms, 0910ms total)
T6D64 001:360 JLINK_WriteReg(CFBP, 0x00000000)  returns 0x00 (0001ms, 0911ms total)
T6D64 001:361 JLINK_SetBPEx(Addr = 0x20000000, Type = 0xFFFFFFF2)  returns 0x00000002 (0000ms, 0911ms total)
T6D64 001:361 JLINK_Go() -- CPU_ReadMem(4 bytes @ 0xE0001000) (0002ms, 0913ms total)
T6D64 001:363 JLINK_IsHalted()  returns FALSE (0000ms, 0913ms total)
T6D64 001:694 JLINK_IsHalted() -- CPU_ReadMem(2 bytes @ 0x20000000)  returns TRUE (0002ms, 0915ms total)
T6D64 001:696 JLINK_ReadReg(R15 (PC))  returns 0x20000000 (0001ms, 0914ms total)
T6D64 001:697 JLINK_ClrBPEx(BPHandle = 0x00000002)  returns 0x00 (0000ms, 0914ms total)
T6D64 001:697 JLINK_ReadReg(R0)  returns 0x00000000 (0000ms, 0914ms total)
T6D64 001:754 JLINK_WriteReg(R0, 0x00000001)  returns 0x00 (0000ms, 0914ms total)
T6D64 001:754 JLINK_WriteReg(R1, 0x00B71B00)  returns 0x00 (0000ms, 0914ms total)
T6D64 001:754 JLINK_WriteReg(R2, 0x00000001)  returns 0x00 (0000ms, 0914ms total)
T6D64 001:754 JLINK_WriteReg(R3, 0x00000000)  returns 0x00 (0000ms, 0914ms total)
T6D64 001:754 JLINK_WriteReg(R4, 0x00000000)  returns 0x00 (0000ms, 0914ms total)
T6D64 001:754 JLINK_WriteReg(R5, 0x00000000)  returns 0x00 (0000ms, 0914ms total)
T6D64 001:755 JLINK_WriteReg(R6, 0x00000000)  returns 0x00 (0000ms, 0914ms total)
T6D64 001:755 JLINK_WriteReg(R7, 0x00000000)  returns 0x00 (0000ms, 0914ms total)
T6D64 001:755 JLINK_WriteReg(R8, 0x00000000)  returns 0x00 (0000ms, 0914ms total)
T6D64 001:755 JLINK_WriteReg(R9, 0x20000160)  returns 0x00 (0000ms, 0914ms total)
T6D64 001:755 JLINK_WriteReg(R10, 0x00000000)  returns 0x00 (0000ms, 0914ms total)
T6D64 001:755 JLINK_WriteReg(R11, 0x00000000)  returns 0x00 (0000ms, 0914ms total)
T6D64 001:755 JLINK_WriteReg(R12, 0x00000000)  returns 0x00 (0000ms, 0914ms total)
T6D64 001:755 JLINK_WriteReg(R13 (SP), 0x20000800)  returns 0x00 (0000ms, 0914ms total)
T6D64 001:755 JLINK_WriteReg(R14, 0x20000001)  returns 0x00 (0000ms, 0914ms total)
T6D64 001:755 JLINK_WriteReg(R15 (PC), 0x2000006A)  returns 0x00 (0000ms, 0914ms total)
T6D64 001:755 JLINK_WriteReg(XPSR, 0x01000000)  returns 0x00 (0000ms, 0914ms total)
T6D64 001:755 JLINK_WriteReg(MSP, 0x20000800)  returns 0x00 (0000ms, 0914ms total)
T6D64 001:755 JLINK_WriteReg(PSP, 0x20000800)  returns 0x00 (0000ms, 0914ms total)
T6D64 001:755 JLINK_WriteReg(CFBP, 0x00000000)  returns 0x00 (0000ms, 0914ms total)
T6D64 001:755 JLINK_SetBPEx(Addr = 0x20000000, Type = 0xFFFFFFF2)  returns 0x00000003 (0000ms, 0914ms total)
T6D64 001:755 JLINK_Go() -- CPU_ReadMem(4 bytes @ 0xE0001000) (0002ms, 0916ms total)
T6D64 001:757 JLINK_IsHalted() -- CPU_ReadMem(2 bytes @ 0x20000000)  returns TRUE (0003ms, 0919ms total)
T6D64 001:760 JLINK_ReadReg(R15 (PC))  returns 0x20000000 (0000ms, 0916ms total)
T6D64 001:760 JLINK_ClrBPEx(BPHandle = 0x00000003)  returns 0x00 (0000ms, 0916ms total)
T6D64 001:760 JLINK_ReadReg(R0)  returns 0x00000000 (0000ms, 0916ms total)
T6D64 001:817 JLINK_WriteMem(0x20000000, 0x0164 Bytes, ...) - Data: 00 BE 0A E0 0D 78 2D 06 68 40 08 24 40 00 00 D3 ... -- CPU_WriteMem(356 bytes @ 0x20000000)  returns 0x164 (0003ms, 0919ms total)
T6D64 001:820 JLINK_WriteReg(R0, 0x08000000)  returns 0x00 (0000ms, 0919ms total)
T6D64 001:820 JLINK_WriteReg(R1, 0x00B71B00)  returns 0x00 (0000ms, 0919ms total)
T6D64 001:820 JLINK_WriteReg(R2, 0x00000002)  returns 0x00 (0000ms, 0919ms total)
T6D64 001:820 JLINK_WriteReg(R3, 0x00000000)  returns 0x00 (0000ms, 0919ms total)
T6D64 001:820 JLINK_WriteReg(R4, 0x00000000)  returns 0x00 (0000ms, 0919ms total)
T6D64 001:820 JLINK_WriteReg(R5, 0x00000000)  returns 0x00 (0000ms, 0919ms total)
T6D64 001:820 JLINK_WriteReg(R6, 0x00000000)  returns 0x00 (0000ms, 0919ms total)
T6D64 001:820 JLINK_WriteReg(R7, 0x00000000)  returns 0x00 (0000ms, 0919ms total)
T6D64 001:820 JLINK_WriteReg(R8, 0x00000000)  returns 0x00 (0000ms, 0919ms total)
T6D64 001:820 JLINK_WriteReg(R9, 0x20000160)  returns 0x00 (0000ms, 0919ms total)
T6D64 001:820 JLINK_WriteReg(R10, 0x00000000)  returns 0x00 (0000ms, 0919ms total)
T6D64 001:820 JLINK_WriteReg(R11, 0x00000000)  returns 0x00 (0001ms, 0920ms total)
T6D64 001:821 JLINK_WriteReg(R12, 0x00000000)  returns 0x00 (0000ms, 0920ms total)
T6D64 001:821 JLINK_WriteReg(R13 (SP), 0x20000800)  returns 0x00 (0000ms, 0920ms total)
T6D64 001:821 JLINK_WriteReg(R14, 0x20000001)  returns 0x00 (0000ms, 0920ms total)
T6D64 001:821 JLINK_WriteReg(R15 (PC), 0x20000038)  returns 0x00 (0000ms, 0920ms total)
T6D64 001:821 JLINK_WriteReg(XPSR, 0x01000000)  returns 0x00 (0000ms, 0920ms total)
T6D64 001:821 JLINK_WriteReg(MSP, 0x20000800)  returns 0x00 (0000ms, 0920ms total)
T6D64 001:821 JLINK_WriteReg(PSP, 0x20000800)  returns 0x00 (0000ms, 0920ms total)
T6D64 001:821 JLINK_WriteReg(CFBP, 0x00000000)  returns 0x00 (0000ms, 0920ms total)
T6D64 001:821 JLINK_SetBPEx(Addr = 0x20000000, Type = 0xFFFFFFF2) -- CPU_ReadMem(2 bytes @ 0x20000000)  returns 0x00000004 (0001ms, 0921ms total)
T6D64 001:822 JLINK_Go() -- CPU_WriteMem(2 bytes @ 0x20000000) -- CPU_ReadMem(4 bytes @ 0xE0001000) (0002ms, 0923ms total)
T6D64 001:824 JLINK_IsHalted() -- CPU_ReadMem(2 bytes @ 0x20000000)  returns TRUE (0003ms, 0926ms total)
T6D64 001:827 JLINK_ReadReg(R15 (PC))  returns 0x20000000 (0000ms, 0923ms total)
T6D64 001:827 JLINK_ClrBPEx(BPHandle = 0x00000004)  returns 0x00 (0000ms, 0923ms total)
T6D64 001:827 JLINK_ReadReg(R0)  returns 0x00000000 (0000ms, 0923ms total)
T6D64 001:828 JLINK_WriteMem(0x20000164, 0x0400 Bytes, ...) - Data: D8 06 00 20 45 01 00 08 85 28 00 08 87 28 00 08 ... -- CPU_WriteMem(1024 bytes @ 0x20000164)  returns 0x400 (0007ms, 0930ms total)
T6D64 001:835 JLINK_WriteReg(R0, 0x08000000)  returns 0x00 (0000ms, 0930ms total)
T6D64 001:835 JLINK_WriteReg(R1, 0x00000400)  returns 0x00 (0000ms, 0930ms total)
T6D64 001:835 JLINK_WriteReg(R2, 0x20000164)  returns 0x00 (0000ms, 0930ms total)
T6D64 001:835 JLINK_WriteReg(R3, 0x00000000)  returns 0x00 (0000ms, 0930ms total)
T6D64 001:835 JLINK_WriteReg(R4, 0x00000000)  returns 0x00 (0000ms, 0930ms total)
T6D64 001:835 JLINK_WriteReg(R5, 0x00000000)  returns 0x00 (0000ms, 0930ms total)
T6D64 001:835 JLINK_WriteReg(R6, 0x00000000)  returns 0x00 (0000ms, 0930ms total)
T6D64 001:835 JLINK_WriteReg(R7, 0x00000000)  returns 0x00 (0001ms, 0931ms total)
T6D64 001:836 JLINK_WriteReg(R8, 0x00000000)  returns 0x00 (0000ms, 0931ms total)
T6D64 001:836 JLINK_WriteReg(R9, 0x20000160)  returns 0x00 (0000ms, 0931ms total)
T6D64 001:836 JLINK_WriteReg(R10, 0x00000000)  returns 0x00 (0000ms, 0931ms total)
T6D64 001:836 JLINK_WriteReg(R11, 0x00000000)  returns 0x00 (0000ms, 0931ms total)
T6D64 001:836 JLINK_WriteReg(R12, 0x00000000)  returns 0x00 (0000ms, 0931ms total)
T6D64 001:836 JLINK_WriteReg(R13 (SP), 0x20000800)  returns 0x00 (0000ms, 0931ms total)
T6D64 001:836 JLINK_WriteReg(R14, 0x20000001)  returns 0x00 (0000ms, 0931ms total)
T6D64 001:836 JLINK_WriteReg(R15 (PC), 0x200000F4)  returns 0x00 (0000ms, 0931ms total)
T6D64 001:836 JLINK_WriteReg(XPSR, 0x01000000)  returns 0x00 (0000ms, 0931ms total)
T6D64 001:836 JLINK_WriteReg(MSP, 0x20000800)  returns 0x00 (0000ms, 0931ms total)
T6D64 001:836 JLINK_WriteReg(PSP, 0x20000800)  returns 0x00 (0000ms, 0931ms total)
T6D64 001:837 JLINK_WriteReg(CFBP, 0x00000000)  returns 0x00 (0000ms, 0932ms total)
T6D64 001:837 JLINK_SetBPEx(Addr = 0x20000000, Type = 0xFFFFFFF2)  returns 0x00000005 (0000ms, 0932ms total)
T6D64 001:837 JLINK_Go() -- CPU_ReadMem(4 bytes @ 0xE0001000) (0002ms, 0934ms total)
T6D64 001:839 JLINK_IsHalted()  returns FALSE (0000ms, 0934ms total)
T6D64 002:126 JLINK_IsHalted() -- CPU_ReadMem(2 bytes @ 0x20000000)  returns TRUE (0003ms, 0937ms total)
T6D64 002:129 JLINK_ReadReg(R15 (PC))  returns 0x20000000 (0000ms, 0934ms total)
T6D64 002:129 JLINK_ClrBPEx(BPHandle = 0x00000005)  returns 0x00 (0000ms, 0934ms total)
T6D64 002:129 JLINK_ReadReg(R0)  returns 0x00000000 (0000ms, 0934ms total)
T6D64 002:131 JLINK_WriteMem(0x20000164, 0x0400 Bytes, ...) - Data: 09 69 21 F0 04 01 4F F0 E0 22 11 61 70 47 00 00 ... -- CPU_WriteMem(1024 bytes @ 0x20000164)  returns 0x400 (0007ms, 0941ms total)
T6D64 002:138 JLINK_WriteReg(R0, 0x08000400)  returns 0x00 (0000ms, 0941ms total)
T6D64 002:138 JLINK_WriteReg(R1, 0x00000400)  returns 0x00 (0000ms, 0941ms total)
T6D64 002:138 JLINK_WriteReg(R2, 0x20000164)  returns 0x00 (0000ms, 0941ms total)
T6D64 002:138 JLINK_WriteReg(R3, 0x00000000)  returns 0x00 (0000ms, 0941ms total)
T6D64 002:138 JLINK_WriteReg(R4, 0x00000000)  returns 0x00 (0000ms, 0941ms total)
T6D64 002:138 JLINK_WriteReg(R5, 0x00000000)  returns 0x00 (0000ms, 0941ms total)
T6D64 002:138 JLINK_WriteReg(R6, 0x00000000)  returns 0x00 (0000ms, 0941ms total)
T6D64 002:138 JLINK_WriteReg(R7, 0x00000000)  returns 0x00 (0001ms, 0942ms total)
T6D64 002:139 JLINK_WriteReg(R8, 0x00000000)  returns 0x00 (0000ms, 0942ms total)
T6D64 002:139 JLINK_WriteReg(R9, 0x20000160)  returns 0x00 (0000ms, 0942ms total)
T6D64 002:139 JLINK_WriteReg(R10, 0x00000000)  returns 0x00 (0000ms, 0942ms total)
T6D64 002:139 JLINK_WriteReg(R11, 0x00000000)  returns 0x00 (0000ms, 0942ms total)
T6D64 002:139 JLINK_WriteReg(R12, 0x00000000)  returns 0x00 (0000ms, 0942ms total)
T6D64 002:139 JLINK_WriteReg(R13 (SP), 0x20000800)  returns 0x00 (0000ms, 0942ms total)
T6D64 002:139 JLINK_WriteReg(R14, 0x20000001)  returns 0x00 (0000ms, 0942ms total)
T6D64 002:139 JLINK_WriteReg(R15 (PC), 0x200000F4)  returns 0x00 (0000ms, 0942ms total)
T6D64 002:139 JLINK_WriteReg(XPSR, 0x01000000)  returns 0x00 (0000ms, 0942ms total)
T6D64 002:139 JLINK_WriteReg(MSP, 0x20000800)  returns 0x00 (0000ms, 0942ms total)
T6D64 002:140 JLINK_WriteReg(PSP, 0x20000800)  returns 0x00 (0000ms, 0943ms total)
T6D64 002:140 JLINK_WriteReg(CFBP, 0x00000000)  returns 0x00 (0000ms, 0943ms total)
T6D64 002:140 JLINK_SetBPEx(Addr = 0x20000000, Type = 0xFFFFFFF2)  returns 0x00000006 (0000ms, 0943ms total)
T6D64 002:140 JLINK_Go() -- CPU_ReadMem(4 bytes @ 0xE0001000) (0002ms, 0945ms total)
T6D64 002:142 JLINK_IsHalted()  returns FALSE (0001ms, 0946ms total)
T6D64 002:261 JLINK_IsHalted() -- CPU_ReadMem(2 bytes @ 0x20000000)  returns TRUE (0003ms, 0948ms total)
T6D64 002:264 JLINK_ReadReg(R15 (PC))  returns 0x20000000 (0000ms, 0945ms total)
T6D64 002:264 JLINK_ClrBPEx(BPHandle = 0x00000006)  returns 0x00 (0000ms, 0945ms total)
T6D64 002:264 JLINK_ReadReg(R0)  returns 0x00000000 (0000ms, 0945ms total)
T6D64 002:266 JLINK_WriteMem(0x20000164, 0x0400 Bytes, ...) - Data: 4F F0 0F 0C 0C FA 03 F7 BC 43 05 FA 03 FC 4C EA ... -- CPU_WriteMem(1024 bytes @ 0x20000164)  returns 0x400 (0007ms, 0952ms total)
T6D64 002:273 JLINK_WriteReg(R0, 0x08000800)  returns 0x00 (0000ms, 0952ms total)
T6D64 002:273 JLINK_WriteReg(R1, 0x00000400)  returns 0x00 (0000ms, 0952ms total)
T6D64 002:273 JLINK_WriteReg(R2, 0x20000164)  returns 0x00 (0000ms, 0952ms total)
T6D64 002:273 JLINK_WriteReg(R3, 0x00000000)  returns 0x00 (0000ms, 0952ms total)
T6D64 002:273 JLINK_WriteReg(R4, 0x00000000)  returns 0x00 (0000ms, 0952ms total)
T6D64 002:273 JLINK_WriteReg(R5, 0x00000000)  returns 0x00 (0000ms, 0952ms total)
T6D64 002:273 JLINK_WriteReg(R6, 0x00000000)  returns 0x00 (0000ms, 0952ms total)
T6D64 002:273 JLINK_WriteReg(R7, 0x00000000)  returns 0x00 (0000ms, 0952ms total)
T6D64 002:273 JLINK_WriteReg(R8, 0x00000000)  returns 0x00 (0000ms, 0952ms total)
T6D64 002:273 JLINK_WriteReg(R9, 0x20000160)  returns 0x00 (0000ms, 0952ms total)
T6D64 002:273 JLINK_WriteReg(R10, 0x00000000)  returns 0x00 (0000ms, 0952ms total)
T6D64 002:273 JLINK_WriteReg(R11, 0x00000000)  returns 0x00 (0000ms, 0952ms total)
T6D64 002:273 JLINK_WriteReg(R12, 0x00000000)  returns 0x00 (0001ms, 0953ms total)
T6D64 002:274 JLINK_WriteReg(R13 (SP), 0x20000800)  returns 0x00 (0000ms, 0953ms total)
T6D64 002:274 JLINK_WriteReg(R14, 0x20000001)  returns 0x00 (0000ms, 0953ms total)
T6D64 002:274 JLINK_WriteReg(R15 (PC), 0x200000F4)  returns 0x00 (0000ms, 0953ms total)
T6D64 002:274 JLINK_WriteReg(XPSR, 0x01000000)  returns 0x00 (0000ms, 0953ms total)
T6D64 002:274 JLINK_WriteReg(MSP, 0x20000800)  returns 0x00 (0000ms, 0953ms total)
T6D64 002:274 JLINK_WriteReg(PSP, 0x20000800)  returns 0x00 (0000ms, 0953ms total)
T6D64 002:274 JLINK_WriteReg(CFBP, 0x00000000)  returns 0x00 (0000ms, 0953ms total)
T6D64 002:274 JLINK_SetBPEx(Addr = 0x20000000, Type = 0xFFFFFFF2)  returns 0x00000007 (0000ms, 0953ms total)
T6D64 002:274 JLINK_Go() -- CPU_ReadMem(4 bytes @ 0xE0001000) (0002ms, 0955ms total)
T6D64 002:276 JLINK_IsHalted()  returns FALSE (0001ms, 0956ms total)
T6D64 002:343 JLINK_IsHalted() -- CPU_ReadMem(2 bytes @ 0x20000000)  returns TRUE (0003ms, 0958ms total)
T6D64 002:346 JLINK_ReadReg(R15 (PC))  returns 0x20000000 (0000ms, 0955ms total)
T6D64 002:346 JLINK_ClrBPEx(BPHandle = 0x00000007)  returns 0x00 (0000ms, 0955ms total)
T6D64 002:346 JLINK_ReadReg(R0)  returns 0x00000000 (0000ms, 0955ms total)
T6D64 002:347 JLINK_WriteMem(0x20000164, 0x0400 Bytes, ...) - Data: 54 4D 6D 68 05 F4 70 12 52 4D 6D 68 05 F4 80 34 ... -- CPU_WriteMem(1024 bytes @ 0x20000164)  returns 0x400 (0007ms, 0962ms total)
T6D64 002:354 JLINK_WriteReg(R0, 0x08000C00)  returns 0x00 (0000ms, 0962ms total)
T6D64 002:354 JLINK_WriteReg(R1, 0x00000400)  returns 0x00 (0000ms, 0962ms total)
T6D64 002:354 JLINK_WriteReg(R2, 0x20000164)  returns 0x00 (0000ms, 0962ms total)
T6D64 002:354 JLINK_WriteReg(R3, 0x00000000)  returns 0x00 (0000ms, 0962ms total)
T6D64 002:354 JLINK_WriteReg(R4, 0x00000000)  returns 0x00 (0000ms, 0962ms total)
T6D64 002:354 JLINK_WriteReg(R5, 0x00000000)  returns 0x00 (0000ms, 0962ms total)
T6D64 002:354 JLINK_WriteReg(R6, 0x00000000)  returns 0x00 (0000ms, 0962ms total)
T6D64 002:355 JLINK_WriteReg(R7, 0x00000000)  returns 0x00 (0000ms, 0962ms total)
T6D64 002:355 JLINK_WriteReg(R8, 0x00000000)  returns 0x00 (0000ms, 0962ms total)
T6D64 002:355 JLINK_WriteReg(R9, 0x20000160)  returns 0x00 (0000ms, 0962ms total)
T6D64 002:355 JLINK_WriteReg(R10, 0x00000000)  returns 0x00 (0000ms, 0962ms total)
T6D64 002:355 JLINK_WriteReg(R11, 0x00000000)  returns 0x00 (0000ms, 0962ms total)
T6D64 002:355 JLINK_WriteReg(R12, 0x00000000)  returns 0x00 (0000ms, 0962ms total)
T6D64 002:355 JLINK_WriteReg(R13 (SP), 0x20000800)  returns 0x00 (0000ms, 0962ms total)
T6D64 002:355 JLINK_WriteReg(R14, 0x20000001)  returns 0x00 (0000ms, 0962ms total)
T6D64 002:355 JLINK_WriteReg(R15 (PC), 0x200000F4)  returns 0x00 (0000ms, 0962ms total)
T6D64 002:355 JLINK_WriteReg(XPSR, 0x01000000)  returns 0x00 (0000ms, 0962ms total)
T6D64 002:355 JLINK_WriteReg(MSP, 0x20000800)  returns 0x00 (0000ms, 0962ms total)
T6D64 002:355 JLINK_WriteReg(PSP, 0x20000800)  returns 0x00 (0000ms, 0962ms total)
T6D64 002:355 JLINK_WriteReg(CFBP, 0x00000000)  returns 0x00 (0000ms, 0962ms total)
T6D64 002:355 JLINK_SetBPEx(Addr = 0x20000000, Type = 0xFFFFFFF2)  returns 0x00000008 (0000ms, 0962ms total)
T6D64 002:355 JLINK_Go() -- CPU_ReadMem(4 bytes @ 0xE0001000) (0003ms, 0965ms total)
T6D64 002:358 JLINK_IsHalted()  returns FALSE (0000ms, 0965ms total)
T6D64 002:360 JLINK_IsHalted()  returns FALSE (0000ms, 0965ms total)
T6D64 002:373 JLINK_IsHalted()  returns FALSE (0000ms, 0965ms total)
T6D64 002:375 JLINK_IsHalted()  returns FALSE (0000ms, 0965ms total)
T6D64 002:386 JLINK_IsHalted()  returns FALSE (0000ms, 0965ms total)
T6D64 002:388 JLINK_IsHalted()  returns FALSE (0000ms, 0965ms total)
T6D64 002:390 JLINK_IsHalted() -- CPU_ReadMem(2 bytes @ 0x20000000)  returns TRUE (0004ms, 0969ms total)
T6D64 002:394 JLINK_ReadReg(R15 (PC))  returns 0x20000000 (0000ms, 0965ms total)
T6D64 002:394 JLINK_ClrBPEx(BPHandle = 0x00000008)  returns 0x00 (0000ms, 0965ms total)
T6D64 002:394 JLINK_ReadReg(R0)  returns 0x00000000 (0000ms, 0965ms total)
T6D64 002:396 JLINK_WriteMem(0x20000164, 0x0400 Bytes, ...) - Data: FF 65 2B 40 4F F6 FF 55 2B 40 8D 89 2B 43 CD 89 ... -- CPU_WriteMem(1024 bytes @ 0x20000164)  returns 0x400 (0007ms, 0972ms total)
T6D64 002:403 JLINK_WriteReg(R0, 0x08001000)  returns 0x00 (0000ms, 0972ms total)
T6D64 002:403 JLINK_WriteReg(R1, 0x00000400)  returns 0x00 (0000ms, 0972ms total)
T6D64 002:403 JLINK_WriteReg(R2, 0x20000164)  returns 0x00 (0000ms, 0972ms total)
T6D64 002:403 JLINK_WriteReg(R3, 0x00000000)  returns 0x00 (0000ms, 0972ms total)
T6D64 002:403 JLINK_WriteReg(R4, 0x00000000)  returns 0x00 (0001ms, 0973ms total)
T6D64 002:404 JLINK_WriteReg(R5, 0x00000000)  returns 0x00 (0000ms, 0973ms total)
T6D64 002:404 JLINK_WriteReg(R6, 0x00000000)  returns 0x00 (0000ms, 0973ms total)
T6D64 002:404 JLINK_WriteReg(R7, 0x00000000)  returns 0x00 (0000ms, 0973ms total)
T6D64 002:404 JLINK_WriteReg(R8, 0x00000000)  returns 0x00 (0000ms, 0973ms total)
T6D64 002:404 JLINK_WriteReg(R9, 0x20000160)  returns 0x00 (0000ms, 0973ms total)
T6D64 002:404 JLINK_WriteReg(R10, 0x00000000)  returns 0x00 (0000ms, 0973ms total)
T6D64 002:404 JLINK_WriteReg(R11, 0x00000000)  returns 0x00 (0000ms, 0973ms total)
T6D64 002:404 JLINK_WriteReg(R12, 0x00000000)  returns 0x00 (0000ms, 0973ms total)
T6D64 002:404 JLINK_WriteReg(R13 (SP), 0x20000800)  returns 0x00 (0000ms, 0973ms total)
T6D64 002:404 JLINK_WriteReg(R14, 0x20000001)  returns 0x00 (0000ms, 0973ms total)
T6D64 002:404 JLINK_WriteReg(R15 (PC), 0x200000F4)  returns 0x00 (0000ms, 0973ms total)
T6D64 002:404 JLINK_WriteReg(XPSR, 0x01000000)  returns 0x00 (0000ms, 0973ms total)
T6D64 002:404 JLINK_WriteReg(MSP, 0x20000800)  returns 0x00 (0000ms, 0973ms total)
T6D64 002:404 JLINK_WriteReg(PSP, 0x20000800)  returns 0x00 (0000ms, 0973ms total)
T6D64 002:404 JLINK_WriteReg(CFBP, 0x00000000)  returns 0x00 (0000ms, 0973ms total)
T6D64 002:404 JLINK_SetBPEx(Addr = 0x20000000, Type = 0xFFFFFFF2)  returns 0x00000009 (0000ms, 0973ms total)
T6D64 002:404 JLINK_Go() -- CPU_ReadMem(4 bytes @ 0xE0001000) (0003ms, 0976ms total)
T6D64 002:407 JLINK_IsHalted()  returns FALSE (0000ms, 0976ms total)
T6D64 002:456 JLINK_IsHalted() -- CPU_ReadMem(2 bytes @ 0x20000000)  returns TRUE (0006ms, 0982ms total)
T6D64 002:462 JLINK_ReadReg(R15 (PC))  returns 0x20000000 (0000ms, 0976ms total)
T6D64 002:462 JLINK_ClrBPEx(BPHandle = 0x00000009)  returns 0x00 (0000ms, 0976ms total)
T6D64 002:462 JLINK_ReadReg(R0)  returns 0x00000000 (0000ms, 0976ms total)
T6D64 002:464 JLINK_WriteMem(0x20000164, 0x0400 Bytes, ...) - Data: 32 43 70 4E B0 42 0E D0 6F 4E B0 42 0B D0 B0 F1 ... -- CPU_WriteMem(1024 bytes @ 0x20000164)  returns 0x400 (0007ms, 0983ms total)
T6D64 002:471 JLINK_WriteReg(R0, 0x08001400)  returns 0x00 (0000ms, 0983ms total)
T6D64 002:471 JLINK_WriteReg(R1, 0x00000400)  returns 0x00 (0000ms, 0983ms total)
T6D64 002:471 JLINK_WriteReg(R2, 0x20000164)  returns 0x00 (0000ms, 0983ms total)
T6D64 002:471 JLINK_WriteReg(R3, 0x00000000)  returns 0x00 (0001ms, 0984ms total)
T6D64 002:472 JLINK_WriteReg(R4, 0x00000000)  returns 0x00 (0000ms, 0984ms total)
T6D64 002:472 JLINK_WriteReg(R5, 0x00000000)  returns 0x00 (0000ms, 0984ms total)
T6D64 002:472 JLINK_WriteReg(R6, 0x00000000)  returns 0x00 (0000ms, 0984ms total)
T6D64 002:472 JLINK_WriteReg(R7, 0x00000000)  returns 0x00 (0000ms, 0984ms total)
T6D64 002:472 JLINK_WriteReg(R8, 0x00000000)  returns 0x00 (0000ms, 0984ms total)
T6D64 002:472 JLINK_WriteReg(R9, 0x20000160)  returns 0x00 (0000ms, 0984ms total)
T6D64 002:472 JLINK_WriteReg(R10, 0x00000000)  returns 0x00 (0000ms, 0984ms total)
T6D64 002:472 JLINK_WriteReg(R11, 0x00000000)  returns 0x00 (0000ms, 0984ms total)
T6D64 002:472 JLINK_WriteReg(R12, 0x00000000)  returns 0x00 (0000ms, 0984ms total)
T6D64 002:472 JLINK_WriteReg(R13 (SP), 0x20000800)  returns 0x00 (0000ms, 0984ms total)
T6D64 002:472 JLINK_WriteReg(R14, 0x20000001)  returns 0x00 (0001ms, 0985ms total)
T6D64 002:473 JLINK_WriteReg(R15 (PC), 0x200000F4)  returns 0x00 (0000ms, 0985ms total)
T6D64 002:473 JLINK_WriteReg(XPSR, 0x01000000)  returns 0x00 (0000ms, 0985ms total)
T6D64 002:473 JLINK_WriteReg(MSP, 0x20000800)  returns 0x00 (0000ms, 0985ms total)
T6D64 002:473 JLINK_WriteReg(PSP, 0x20000800)  returns 0x00 (0000ms, 0985ms total)
T6D64 002:473 JLINK_WriteReg(CFBP, 0x00000000)  returns 0x00 (0000ms, 0985ms total)
T6D64 002:473 JLINK_SetBPEx(Addr = 0x20000000, Type = 0xFFFFFFF2)  returns 0x0000000A (0000ms, 0985ms total)
T6D64 002:473 JLINK_Go() -- CPU_ReadMem(4 bytes @ 0xE0001000) (0002ms, 0987ms total)
T6D64 002:475 JLINK_IsHalted()  returns FALSE (0001ms, 0988ms total)
T6D64 002:499 JLINK_IsHalted()  returns FALSE (0000ms, 0987ms total)
T6D64 002:561 JLINK_IsHalted() -- CPU_ReadMem(2 bytes @ 0x20000000)  returns TRUE (0003ms, 0990ms total)
T6D64 002:564 JLINK_ReadReg(R15 (PC))  returns 0x20000000 (0000ms, 0987ms total)
T6D64 002:564 JLINK_ClrBPEx(BPHandle = 0x0000000A)  returns 0x00 (0000ms, 0987ms total)
T6D64 002:564 JLINK_ReadReg(R0)  returns 0x00000000 (0000ms, 0987ms total)
T6D64 002:566 JLINK_WriteMem(0x20000164, 0x0400 Bytes, ...) - Data: FB 73 1A 40 82 80 70 47 21 B1 82 88 42 F0 08 02 ... -- CPU_WriteMem(1024 bytes @ 0x20000164)  returns 0x400 (0006ms, 0993ms total)
T6D64 002:572 JLINK_WriteReg(R0, 0x08001800)  returns 0x00 (0001ms, 0994ms total)
T6D64 002:573 JLINK_WriteReg(R1, 0x00000400)  returns 0x00 (0000ms, 0994ms total)
T6D64 002:573 JLINK_WriteReg(R2, 0x20000164)  returns 0x00 (0000ms, 0994ms total)
T6D64 002:573 JLINK_WriteReg(R3, 0x00000000)  returns 0x00 (0000ms, 0994ms total)
T6D64 002:573 JLINK_WriteReg(R4, 0x00000000)  returns 0x00 (0000ms, 0994ms total)
T6D64 002:573 JLINK_WriteReg(R5, 0x00000000)  returns 0x00 (0000ms, 0994ms total)
T6D64 002:573 JLINK_WriteReg(R6, 0x00000000)  returns 0x00 (0000ms, 0994ms total)
T6D64 002:573 JLINK_WriteReg(R7, 0x00000000)  returns 0x00 (0000ms, 0994ms total)
T6D64 002:573 JLINK_WriteReg(R8, 0x00000000)  returns 0x00 (0000ms, 0994ms total)
T6D64 002:573 JLINK_WriteReg(R9, 0x20000160)  returns 0x00 (0000ms, 0994ms total)
T6D64 002:573 JLINK_WriteReg(R10, 0x00000000)  returns 0x00 (0000ms, 0994ms total)
T6D64 002:573 JLINK_WriteReg(R11, 0x00000000)  returns 0x00 (0000ms, 0994ms total)
T6D64 002:573 JLINK_WriteReg(R12, 0x00000000)  returns 0x00 (0000ms, 0994ms total)
T6D64 002:573 JLINK_WriteReg(R13 (SP), 0x20000800)  returns 0x00 (0000ms, 0994ms total)
T6D64 002:573 JLINK_WriteReg(R14, 0x20000001)  returns 0x00 (0000ms, 0994ms total)
T6D64 002:573 JLINK_WriteReg(R15 (PC), 0x200000F4)  returns 0x00 (0001ms, 0995ms total)
T6D64 002:574 JLINK_WriteReg(XPSR, 0x01000000)  returns 0x00 (0000ms, 0995ms total)
T6D64 002:574 JLINK_WriteReg(MSP, 0x20000800)  returns 0x00 (0000ms, 0995ms total)
T6D64 002:574 JLINK_WriteReg(PSP, 0x20000800)  returns 0x00 (0000ms, 0995ms total)
T6D64 002:574 JLINK_WriteReg(CFBP, 0x00000000)  returns 0x00 (0000ms, 0995ms total)
T6D64 002:574 JLINK_SetBPEx(Addr = 0x20000000, Type = 0xFFFFFFF2)  returns 0x0000000B (0000ms, 0995ms total)
T6D64 002:574 JLINK_Go() -- CPU_ReadMem(4 bytes @ 0xE0001000) (0002ms, 0997ms total)
T6D64 002:576 JLINK_IsHalted()  returns FALSE (0001ms, 0998ms total)
T6D64 002:592 JLINK_IsHalted()  returns FALSE (0000ms, 0997ms total)
T6D64 002:594 JLINK_IsHalted()  returns FALSE (0000ms, 0997ms total)
T6D64 002:596 JLINK_IsHalted()  returns FALSE (0000ms, 0997ms total)
T6D64 002:607 JLINK_IsHalted() -- CPU_ReadMem(2 bytes @ 0x20000000)  returns TRUE (0003ms, 1000ms total)
T6D64 002:610 JLINK_ReadReg(R15 (PC))  returns 0x20000000 (0000ms, 0997ms total)
T6D64 002:610 JLINK_ClrBPEx(BPHandle = 0x0000000B)  returns 0x00 (0000ms, 0997ms total)
T6D64 002:610 JLINK_ReadReg(R0)  returns 0x00000000 (0000ms, 0997ms total)
T6D64 002:611 JLINK_WriteMem(0x20000164, 0x0400 Bytes, ...) - Data: E5 48 84 42 08 D1 01 21 08 05 FF F7 78 F8 00 21 ... -- CPU_WriteMem(1024 bytes @ 0x20000164)  returns 0x400 (0007ms, 1004ms total)
T6D64 002:618 JLINK_WriteReg(R0, 0x08001C00)  returns 0x00 (0000ms, 1004ms total)
T6D64 002:619 JLINK_WriteReg(R1, 0x00000400)  returns 0x00 (0000ms, 1005ms total)
T6D64 002:619 JLINK_WriteReg(R2, 0x20000164)  returns 0x00 (0000ms, 1005ms total)
T6D64 002:620 JLINK_WriteReg(R3, 0x00000000)  returns 0x00 (0000ms, 1005ms total)
T6D64 002:620 JLINK_WriteReg(R4, 0x00000000)  returns 0x00 (0000ms, 1005ms total)
T6D64 002:620 JLINK_WriteReg(R5, 0x00000000)  returns 0x00 (0000ms, 1005ms total)
T6D64 002:620 JLINK_WriteReg(R6, 0x00000000)  returns 0x00 (0000ms, 1005ms total)
T6D64 002:620 JLINK_WriteReg(R7, 0x00000000)  returns 0x00 (0000ms, 1005ms total)
T6D64 002:620 JLINK_WriteReg(R8, 0x00000000)  returns 0x00 (0000ms, 1005ms total)
T6D64 002:620 JLINK_WriteReg(R9, 0x20000160)  returns 0x00 (0000ms, 1005ms total)
T6D64 002:620 JLINK_WriteReg(R10, 0x00000000)  returns 0x00 (0001ms, 1006ms total)
T6D64 002:621 JLINK_WriteReg(R11, 0x00000000)  returns 0x00 (0000ms, 1006ms total)
T6D64 002:621 JLINK_WriteReg(R12, 0x00000000)  returns 0x00 (0000ms, 1006ms total)
T6D64 002:621 JLINK_WriteReg(R13 (SP), 0x20000800)  returns 0x00 (0000ms, 1006ms total)
T6D64 002:621 JLINK_WriteReg(R14, 0x20000001)  returns 0x00 (0000ms, 1006ms total)
T6D64 002:621 JLINK_WriteReg(R15 (PC), 0x200000F4)  returns 0x00 (0000ms, 1006ms total)
T6D64 002:621 JLINK_WriteReg(XPSR, 0x01000000)  returns 0x00 (0000ms, 1006ms total)
T6D64 002:621 JLINK_WriteReg(MSP, 0x20000800)  returns 0x00 (0000ms, 1006ms total)
T6D64 002:621 JLINK_WriteReg(PSP, 0x20000800)  returns 0x00 (0000ms, 1006ms total)
T6D64 002:621 JLINK_WriteReg(CFBP, 0x00000000)  returns 0x00 (0000ms, 1006ms total)
T6D64 002:621 JLINK_SetBPEx(Addr = 0x20000000, Type = 0xFFFFFFF2)  returns 0x0000000C (0000ms, 1006ms total)
T6D64 002:621 JLINK_Go() -- CPU_ReadMem(4 bytes @ 0xE0001000) (0003ms, 1009ms total)
T6D64 002:624 JLINK_IsHalted()  returns FALSE (0001ms, 1010ms total)
T6D64 002:676 JLINK_IsHalted() -- CPU_ReadMem(2 bytes @ 0x20000000)  returns TRUE (0003ms, 1012ms total)
T6D64 002:679 JLINK_ReadReg(R15 (PC))  returns 0x20000000 (0000ms, 1009ms total)
T6D64 002:679 JLINK_ClrBPEx(BPHandle = 0x0000000C)  returns 0x00 (0000ms, 1009ms total)
T6D64 002:679 JLINK_ReadReg(R0)  returns 0x00000000 (0000ms, 1009ms total)
T6D64 002:680 JLINK_WriteMem(0x20000164, 0x0400 Bytes, ...) - Data: F5 48 02 F0 4C F8 F4 48 01 F0 1F FD 00 21 F2 48 ... -- CPU_WriteMem(1024 bytes @ 0x20000164)  returns 0x400 (0007ms, 1016ms total)
T6D64 002:687 JLINK_WriteReg(R0, 0x08002000)  returns 0x00 (0000ms, 1016ms total)
T6D64 002:687 JLINK_WriteReg(R1, 0x00000400)  returns 0x00 (0000ms, 1016ms total)
T6D64 002:687 JLINK_WriteReg(R2, 0x20000164)  returns 0x00 (0000ms, 1016ms total)
T6D64 002:687 JLINK_WriteReg(R3, 0x00000000)  returns 0x00 (0000ms, 1016ms total)
T6D64 002:687 JLINK_WriteReg(R4, 0x00000000)  returns 0x00 (0000ms, 1016ms total)
T6D64 002:687 JLINK_WriteReg(R5, 0x00000000)  returns 0x00 (0000ms, 1016ms total)
T6D64 002:687 JLINK_WriteReg(R6, 0x00000000)  returns 0x00 (0000ms, 1016ms total)
T6D64 002:687 JLINK_WriteReg(R7, 0x00000000)  returns 0x00 (0000ms, 1016ms total)
T6D64 002:687 JLINK_WriteReg(R8, 0x00000000)  returns 0x00 (0000ms, 1016ms total)
T6D64 002:688 JLINK_WriteReg(R9, 0x20000160)  returns 0x00 (0000ms, 1017ms total)
T6D64 002:688 JLINK_WriteReg(R10, 0x00000000)  returns 0x00 (0000ms, 1017ms total)
T6D64 002:688 JLINK_WriteReg(R11, 0x00000000)  returns 0x00 (0000ms, 1017ms total)
T6D64 002:688 JLINK_WriteReg(R12, 0x00000000)  returns 0x00 (0000ms, 1017ms total)
T6D64 002:688 JLINK_WriteReg(R13 (SP), 0x20000800)  returns 0x00 (0000ms, 1017ms total)
T6D64 002:688 JLINK_WriteReg(R14, 0x20000001)  returns 0x00 (0000ms, 1017ms total)
T6D64 002:688 JLINK_WriteReg(R15 (PC), 0x200000F4)  returns 0x00 (0000ms, 1017ms total)
T6D64 002:688 JLINK_WriteReg(XPSR, 0x01000000)  returns 0x00 (0000ms, 1017ms total)
T6D64 002:688 JLINK_WriteReg(MSP, 0x20000800)  returns 0x00 (0000ms, 1017ms total)
T6D64 002:688 JLINK_WriteReg(PSP, 0x20000800)  returns 0x00 (0000ms, 1017ms total)
T6D64 002:688 JLINK_WriteReg(CFBP, 0x00000000)  returns 0x00 (0000ms, 1017ms total)
T6D64 002:688 JLINK_SetBPEx(Addr = 0x20000000, Type = 0xFFFFFFF2)  returns 0x0000000D (0000ms, 1017ms total)
T6D64 002:688 JLINK_Go() -- CPU_ReadMem(4 bytes @ 0xE0001000) (0002ms, 1019ms total)
T6D64 002:690 JLINK_IsHalted()  returns FALSE (0001ms, 1020ms total)
T6D64 002:705 JLINK_IsHalted()  returns FALSE (0000ms, 1019ms total)
T6D64 002:715 JLINK_IsHalted()  returns FALSE (0000ms, 1019ms total)
T6D64 002:718 JLINK_IsHalted()  returns FALSE (0001ms, 1020ms total)
T6D64 002:776 JLINK_IsHalted() -- CPU_ReadMem(2 bytes @ 0x20000000)  returns TRUE (0003ms, 1022ms total)
T6D64 002:779 JLINK_ReadReg(R15 (PC))  returns 0x20000000 (0000ms, 1019ms total)
T6D64 002:779 JLINK_ClrBPEx(BPHandle = 0x0000000D)  returns 0x00 (0000ms, 1019ms total)
T6D64 002:779 JLINK_ReadReg(R0)  returns 0x00000000 (0000ms, 1019ms total)
T6D64 002:781 JLINK_WriteMem(0x20000164, 0x0400 Bytes, ...) - Data: 53 FD 02 D8 0E 20 04 F0 DF F9 F8 49 88 6F F8 49 ... -- CPU_WriteMem(1024 bytes @ 0x20000164)  returns 0x400 (0007ms, 1026ms total)
T6D64 002:788 JLINK_WriteReg(R0, 0x08002400)  returns 0x00 (0000ms, 1026ms total)
T6D64 002:788 JLINK_WriteReg(R1, 0x00000400)  returns 0x00 (0000ms, 1026ms total)
T6D64 002:788 JLINK_WriteReg(R2, 0x20000164)  returns 0x00 (0000ms, 1026ms total)
T6D64 002:788 JLINK_WriteReg(R3, 0x00000000)  returns 0x00 (0000ms, 1026ms total)
T6D64 002:788 JLINK_WriteReg(R4, 0x00000000)  returns 0x00 (0000ms, 1026ms total)
T6D64 002:788 JLINK_WriteReg(R5, 0x00000000)  returns 0x00 (0000ms, 1026ms total)
T6D64 002:788 JLINK_WriteReg(R6, 0x00000000)  returns 0x00 (0000ms, 1026ms total)
T6D64 002:788 JLINK_WriteReg(R7, 0x00000000)  returns 0x00 (0000ms, 1026ms total)
T6D64 002:788 JLINK_WriteReg(R8, 0x00000000)  returns 0x00 (0000ms, 1026ms total)
T6D64 002:788 JLINK_WriteReg(R9, 0x20000160)  returns 0x00 (0000ms, 1026ms total)
T6D64 002:788 JLINK_WriteReg(R10, 0x00000000)  returns 0x00 (0000ms, 1026ms total)
T6D64 002:788 JLINK_WriteReg(R11, 0x00000000)  returns 0x00 (0000ms, 1026ms total)
T6D64 002:788 JLINK_WriteReg(R12, 0x00000000)  returns 0x00 (0000ms, 1026ms total)
T6D64 002:788 JLINK_WriteReg(R13 (SP), 0x20000800)  returns 0x00 (0001ms, 1027ms total)
T6D64 002:789 JLINK_WriteReg(R14, 0x20000001)  returns 0x00 (0000ms, 1027ms total)
T6D64 002:789 JLINK_WriteReg(R15 (PC), 0x200000F4)  returns 0x00 (0000ms, 1027ms total)
T6D64 002:789 JLINK_WriteReg(XPSR, 0x01000000)  returns 0x00 (0000ms, 1027ms total)
T6D64 002:789 JLINK_WriteReg(MSP, 0x20000800)  returns 0x00 (0000ms, 1027ms total)
T6D64 002:789 JLINK_WriteReg(PSP, 0x20000800)  returns 0x00 (0000ms, 1027ms total)
T6D64 002:789 JLINK_WriteReg(CFBP, 0x00000000)  returns 0x00 (0000ms, 1027ms total)
T6D64 002:789 JLINK_SetBPEx(Addr = 0x20000000, Type = 0xFFFFFFF2)  returns 0x0000000E (0000ms, 1027ms total)
T6D64 002:789 JLINK_Go() -- CPU_ReadMem(4 bytes @ 0xE0001000) (0002ms, 1029ms total)
T6D64 002:791 JLINK_IsHalted()  returns FALSE (0001ms, 1030ms total)
T6D64 002:794 JLINK_IsHalted()  returns FALSE (0000ms, 1029ms total)
T6D64 002:796 JLINK_IsHalted()  returns FALSE (0000ms, 1029ms total)
T6D64 002:811 JLINK_IsHalted()  returns FALSE (0000ms, 1029ms total)
T6D64 002:813 JLINK_IsHalted()  returns FALSE (0000ms, 1029ms total)
T6D64 002:815 JLINK_IsHalted()  returns FALSE (0000ms, 1029ms total)
T6D64 002:826 JLINK_IsHalted() -- CPU_ReadMem(2 bytes @ 0x20000000)  returns TRUE (0003ms, 1032ms total)
T6D64 002:829 JLINK_ReadReg(R15 (PC))  returns 0x20000000 (0000ms, 1029ms total)
T6D64 002:829 JLINK_ClrBPEx(BPHandle = 0x0000000E)  returns 0x00 (0000ms, 1029ms total)
T6D64 002:829 JLINK_ReadReg(R0)  returns 0x00000000 (0000ms, 1029ms total)
T6D64 002:832 JLINK_WriteMem(0x20000164, 0x0400 Bytes, ...) - Data: 00 00 24 42 00 00 14 42 C8 02 00 20 2D 00 00 20 ... -- CPU_WriteMem(1024 bytes @ 0x20000164)  returns 0x400 (0006ms, 1035ms total)
T6D64 002:838 JLINK_WriteReg(R0, 0x08002800)  returns 0x00 (0000ms, 1035ms total)
T6D64 002:838 JLINK_WriteReg(R1, 0x00000400)  returns 0x00 (0000ms, 1035ms total)
T6D64 002:838 JLINK_WriteReg(R2, 0x20000164)  returns 0x00 (0001ms, 1036ms total)
T6D64 002:839 JLINK_WriteReg(R3, 0x00000000)  returns 0x00 (0000ms, 1036ms total)
T6D64 002:839 JLINK_WriteReg(R4, 0x00000000)  returns 0x00 (0000ms, 1036ms total)
T6D64 002:839 JLINK_WriteReg(R5, 0x00000000)  returns 0x00 (0000ms, 1036ms total)
T6D64 002:839 JLINK_WriteReg(R6, 0x00000000)  returns 0x00 (0000ms, 1036ms total)
T6D64 002:839 JLINK_WriteReg(R7, 0x00000000)  returns 0x00 (0000ms, 1036ms total)
T6D64 002:839 JLINK_WriteReg(R8, 0x00000000)  returns 0x00 (0000ms, 1036ms total)
T6D64 002:839 JLINK_WriteReg(R9, 0x20000160)  returns 0x00 (0000ms, 1036ms total)
T6D64 002:839 JLINK_WriteReg(R10, 0x00000000)  returns 0x00 (0000ms, 1036ms total)
T6D64 002:839 JLINK_WriteReg(R11, 0x00000000)  returns 0x00 (0000ms, 1036ms total)
T6D64 002:839 JLINK_WriteReg(R12, 0x00000000)  returns 0x00 (0000ms, 1036ms total)
T6D64 002:839 JLINK_WriteReg(R13 (SP), 0x20000800)  returns 0x00 (0000ms, 1036ms total)
T6D64 002:839 JLINK_WriteReg(R14, 0x20000001)  returns 0x00 (0000ms, 1036ms total)
T6D64 002:839 JLINK_WriteReg(R15 (PC), 0x200000F4)  returns 0x00 (0000ms, 1036ms total)
T6D64 002:839 JLINK_WriteReg(XPSR, 0x01000000)  returns 0x00 (0000ms, 1036ms total)
T6D64 002:839 JLINK_WriteReg(MSP, 0x20000800)  returns 0x00 (0000ms, 1036ms total)
T6D64 002:839 JLINK_WriteReg(PSP, 0x20000800)  returns 0x00 (0000ms, 1036ms total)
T6D64 002:839 JLINK_WriteReg(CFBP, 0x00000000)  returns 0x00 (0000ms, 1036ms total)
T6D64 002:840 JLINK_SetBPEx(Addr = 0x20000000, Type = 0xFFFFFFF2)  returns 0x0000000F (0000ms, 1036ms total)
T6D64 002:840 JLINK_Go() -- CPU_ReadMem(4 bytes @ 0xE0001000) (0002ms, 1038ms total)
T6D64 002:842 JLINK_IsHalted()  returns FALSE (0000ms, 1038ms total)
T6D64 002:897 JLINK_IsHalted() -- CPU_ReadMem(2 bytes @ 0x20000000)  returns TRUE (0003ms, 1041ms total)
T6D64 002:900 JLINK_ReadReg(R15 (PC))  returns 0x20000000 (0000ms, 1038ms total)
T6D64 002:900 JLINK_ClrBPEx(BPHandle = 0x0000000F)  returns 0x00 (0000ms, 1038ms total)
T6D64 002:900 JLINK_ReadReg(R0)  returns 0x00000000 (0000ms, 1038ms total)
T6D64 002:901 JLINK_WriteMem(0x20000164, 0x0400 Bytes, ...) - Data: 90 61 07 20 10 61 00 20 08 B1 00 BF FE E7 4F F0 ... -- CPU_WriteMem(1024 bytes @ 0x20000164)  returns 0x400 (0007ms, 1045ms total)
T6D64 002:908 JLINK_WriteReg(R0, 0x08002C00)  returns 0x00 (0000ms, 1045ms total)
T6D64 002:908 JLINK_WriteReg(R1, 0x00000400)  returns 0x00 (0000ms, 1045ms total)
T6D64 002:908 JLINK_WriteReg(R2, 0x20000164)  returns 0x00 (0000ms, 1045ms total)
T6D64 002:908 JLINK_WriteReg(R3, 0x00000000)  returns 0x00 (0000ms, 1045ms total)
T6D64 002:908 JLINK_WriteReg(R4, 0x00000000)  returns 0x00 (0000ms, 1045ms total)
T6D64 002:908 JLINK_WriteReg(R5, 0x00000000)  returns 0x00 (0000ms, 1045ms total)
T6D64 002:908 JLINK_WriteReg(R6, 0x00000000)  returns 0x00 (0000ms, 1045ms total)
T6D64 002:908 JLINK_WriteReg(R7, 0x00000000)  returns 0x00 (0000ms, 1045ms total)
T6D64 002:908 JLINK_WriteReg(R8, 0x00000000)  returns 0x00 (0000ms, 1045ms total)
T6D64 002:908 JLINK_WriteReg(R9, 0x20000160)  returns 0x00 (0000ms, 1045ms total)
T6D64 002:908 JLINK_WriteReg(R10, 0x00000000)  returns 0x00 (0000ms, 1045ms total)
T6D64 002:908 JLINK_WriteReg(R11, 0x00000000)  returns 0x00 (0001ms, 1046ms total)
T6D64 002:909 JLINK_WriteReg(R12, 0x00000000)  returns 0x00 (0000ms, 1046ms total)
T6D64 002:909 JLINK_WriteReg(R13 (SP), 0x20000800)  returns 0x00 (0000ms, 1046ms total)
T6D64 002:909 JLINK_WriteReg(R14, 0x20000001)  returns 0x00 (0000ms, 1046ms total)
T6D64 002:909 JLINK_WriteReg(R15 (PC), 0x200000F4)  returns 0x00 (0000ms, 1046ms total)
T6D64 002:909 JLINK_WriteReg(XPSR, 0x01000000)  returns 0x00 (0000ms, 1046ms total)
T6D64 002:909 JLINK_WriteReg(MSP, 0x20000800)  returns 0x00 (0000ms, 1046ms total)
T6D64 002:909 JLINK_WriteReg(PSP, 0x20000800)  returns 0x00 (0000ms, 1046ms total)
T6D64 002:909 JLINK_WriteReg(CFBP, 0x00000000)  returns 0x00 (0000ms, 1046ms total)
T6D64 002:909 JLINK_SetBPEx(Addr = 0x20000000, Type = 0xFFFFFFF2)  returns 0x00000010 (0000ms, 1046ms total)
T6D64 002:909 JLINK_Go() -- CPU_ReadMem(4 bytes @ 0xE0001000) (0002ms, 1048ms total)
T6D64 002:911 JLINK_IsHalted()  returns FALSE (0000ms, 1048ms total)
T6D64 002:918 JLINK_IsHalted()  returns FALSE (0000ms, 1048ms total)
T6D64 002:920 JLINK_IsHalted()  returns FALSE (0000ms, 1048ms total)
T6D64 002:922 JLINK_IsHalted()  returns FALSE (0000ms, 1048ms total)
